T0BF0 659:468 SEGGER J-Link V6.32i Log File (0000ms, 2172ms total)
T0BF0 659:468 DLL Compiled: Jul 24 2018 15:19:55 (0000ms, 2172ms total)
T0BF0 659:468 Logging started @ 2019-01-26 20:34 (0000ms, 2172ms total)
T0BF0 659:468 JLINK_SetWarnOutHandler(...) (0000ms, 2172ms total)
T0BF0 659:468 JLINK_OpenEx(...)
Firmware: J-Link V9 compiled Jun  2 2222 22:22:22
Hardware: V9.00
S/N: 30000299
Feature(s): GDB, RDI, FlashBP, FlashDL, JFlash, RDDI
TELNET listener socket opened on port 19021Device "CORTEX-M4" selected.WEBSRV 
Starting webserver (0026ms, 2198ms total)
T0BF0 659:468 WEBSRV Webserver running on local port 19080 (0026ms, 2198ms total)
T0BF0 659:468   returns O.K. (0026ms, 2198ms total)
T0BF0 659:494 JLINK_GetEmuCaps()  returns 0xB9FF7BBF (0000ms, 2198ms total)
T0BF0 659:494 JLINK_TIF_GetAvailable(...) (0001ms, 2199ms total)
T0BF0 659:495 JLINK_SetErrorOutHandler(...) (0000ms, 2199ms total)
T0BF0 659:495 JLINK_ExecCommand("ProjectFile = "E:\github_repository\¹¤³Ì2019\Engineer for test\USER\JLinkSettings.ini"", ...). Device "CORTEX-M4" selected.  returns 0x00 (0023ms, 2222ms total)
T0BF0 659:528 JLINK_ExecCommand("Device = STM32F405RGTx", ...). Device "STM32F405RG" selected.  returns 0x00 (0008ms, 2230ms total)
T0BF0 659:536 JLINK_ExecCommand("DisableConnectionTimeout", ...).   returns 0x01 (0000ms, 2230ms total)
T0BF0 659:536 JLINK_GetHardwareVersion()  returns 0x15F90 (0000ms, 2230ms total)
T0BF0 659:536 JLINK_GetDLLVersion()  returns 63209 (0000ms, 2230ms total)
T0BF0 659:536 JLINK_GetFirmwareString(...) (0000ms, 2230ms total)
T0BF0 659:551 JLINK_GetDLLVersion()  returns 63209 (0000ms, 2230ms total)
T0BF0 659:551 JLINK_GetCompileDateTime() (0000ms, 2230ms total)
T0BF0 659:554 JLINK_GetFirmwareString(...) (0000ms, 2230ms total)
T0BF0 659:559 JLINK_GetHardwareVersion()  returns 0x15F90 (0000ms, 2230ms total)
T0BF0 659:575 JLINK_TIF_Select(JLINKARM_TIF_SWD)  returns 0x00 (0000ms, 2230ms total)
T0BF0 659:575 JLINK_SetSpeed(5000) (0001ms, 2231ms total)
T0BF0 659:576 JLINK_GetId() >0x10B TIF>Found SW-DP with ID 0x2BA01477 >0x0D TIF> >0x28 TIF> >0x0D TIF> >0x28 TIF> >0x0D TIF> >0x28 TIF> >0x0D TIF> >0x28 TIF> >0x0D TIF> >0x21 TIF> >0x0D TIF> >0x28 TIF> >0x0D TIF> >0x28 TIF> >0x0D TIF> >0x28 TIF> >0x0D TIF> >0x21 TIF> >0x0D TIF> >0x21 TIF> >0x0D TIF> >0x28 TIF> >0x0D TIF> >0x21 TIF> >0x0D TIF> >0x21 TIF> >0x0D TIF> >0x28 TIF> >0x0D TIF> >0x21 TIF> >0x0D TIF> >0x21 TIF> >0x0D TIF> >0x28 TIF> >0x0D TIF> >0x21 TIF> >0x0D TIF> >0x21 TIF> >0x0D TIF> >0x28 TIF>
 >0x0D TIF> >0x21 TIF> >0x0D TIF> >0x21 TIF> >0x0D TIF> >0x28 TIF> >0x0D TIF> >0x21 TIF> >0x0D TIF> >0x21 TIF> >0x10B TIF>Found SW-DP with ID 0x2BA01477 >0x0D TIF> >0x28 TIF> >0x0D TIF> >0x28 TIF> >0x0D TIF> >0x28 TIF> >0x0D TIF> >0x28 TIF> >0x0D TIF> >0x21 TIF> >0x0D TIF> >0x28 TIF>Scanning AP map to find all available APs >0x0D TIF> >0x28 TIF> >0x0D TIF> >0x21 TIF> >0x0D TIF> >0x21 TIF> >0x0D TIF> >0x28 TIF> >0x0D TIF> >0x21 TIF> >0x0D TIF> >0x21 TIF>
AP[1]: Stopped AP scan as end of AP map has been reachedAP[0]: AHB-AP (IDR: 0x24770011)Iterating through AP map to find AHB-AP to use >0x42 TIF> >0x28 TIF> >0x0D TIF> >0x28 TIF> >0x0D TIF> >0x21 TIF> >0x0D TIF> >0x21 TIF> >0x42 TIF> >0x28 TIF> >0x0D TIF> >0x28 TIF> >0x0D TIF> >0x28 TIF> >0x0D TIF> >0x21 TIF> >0x0D TIF> >0x21 TIF>AP[0]: Core foundAP[0]: AHB-AP ROM base: 0xE00FF000 >0x0D TIF> >0x28 TIF> >0x0D TIF> >0x28 TIF> >0x0D TIF> >0x28 TIF> >0x0D TIF> >0x21 TIF> >0x0D TIF> >0x21 TIF>
CPUID register: 0x410FC241. Implementer code: 0x41 (ARM)Found Cortex-M4 r0p1, Little endian. -- Max. mem block: 0x00010FB0 -- CPU_ReadMem(4 bytes @ 0xE000EDF0) -- CPU_WriteMem(4 bytes @ 0xE000EDF0) -- CPU_ReadMem(4 bytes @ 0xE0002000)FPUnit: 6 code (BP) slots and 2 literal slots -- CPU_ReadMem(4 bytes @ 0xE000EDFC) -- CPU_WriteMem(4 bytes @ 0xE000EDFC) -- CPU_ReadMem(4 bytes @ 0xE0001000) -- CPU_WriteMem(4 bytes @ 0xE0001000) -- CPU_ReadMem(4 bytes @ 0xE000ED88) -- CPU_WriteMem(4 bytes @ 0xE000ED88)
 -- CPU_ReadMem(4 bytes @ 0xE000ED88) -- CPU_WriteMem(4 bytes @ 0xE000ED88)CoreSight components:ROMTbl[0] @ E00FF000 -- CPU_ReadMem(16 bytes @ 0xE00FF000) -- CPU_ReadMem(16 bytes @ 0xE000EFF0) -- CPU_ReadMem(16 bytes @ 0xE000EFE0)ROMTbl[0][0]: E000E000, CID: B105E00D, PID: 000BB00C SCS-M7 -- CPU_ReadMem(16 bytes @ 0xE0001FF0) -- CPU_ReadMem(16 bytes @ 0xE0001FE0)ROMTbl[0][1]: E0001000, CID: B105E00D, PID: 003BB002 DWT -- CPU_ReadMem(16 bytes @ 0xE0002FF0) -- CPU_ReadMem(16 bytes @ 0xE0002FE0)
ROMTbl[0][2]: E0002000, CID: B105E00D, PID: 002BB003 FPB -- CPU_ReadMem(16 bytes @ 0xE0000FF0) -- CPU_ReadMem(16 bytes @ 0xE0000FE0)ROMTbl[0][3]: E0000000, CID: B105E00D, PID: 003BB001 ITM -- CPU_ReadMem(16 bytes @ 0xE00FF010) -- CPU_ReadMem(16 bytes @ 0xE0040FF0) -- CPU_ReadMem(16 bytes @ 0xE0040FE0)ROMTbl[0][4]: E0040000, CID: B105900D, PID: 000BB9A1 TPIU -- CPU_ReadMem(16 bytes @ 0xE0041FF0) -- CPU_ReadMem(16 bytes @ 0xE0041FE0)ROMTbl[0][5]: E0041000, CID: B105900D, PID: 000BB925 ETM >0x0D TIF>
 >0x21 TIF>  returns 0x2BA01477 (0263ms, 2494ms total)
T0BF0 659:839 JLINK_GetDLLVersion()  returns 63209 (0000ms, 2494ms total)
T0BF0 659:839 JLINK_CORE_GetFound()  returns 0xE0000FF (0000ms, 2494ms total)
T0BF0 659:839 JLINK_GetDebugInfo(0x100 = JLINKARM_ROM_TABLE_ADDR_INDEX) -- Value=0xE00FF000  returns 0x00 (0000ms, 2494ms total)
T0BF0 659:848 JLINK_GetDebugInfo(0x100 = JLINKARM_ROM_TABLE_ADDR_INDEX) -- Value=0xE00FF000  returns 0x00 (0000ms, 2494ms total)
T0BF0 659:848 JLINK_GetDebugInfo(0x101 = JLINKARM_DEBUG_INFO_ETM_ADDR_INDEX) -- Value=0xE0041000  returns 0x00 (0000ms, 2494ms total)
T0BF0 659:848 JLINK_ReadMemEx(0xE0041FD0, 0x0020 Bytes, ..., Flags = 0x02000004) -- CPU_ReadMem(32 bytes @ 0xE0041FD0) - Data: 04 00 00 00 00 00 00 00 00 00 00 00 00 00 00 00 ...  returns 0x20 (0001ms, 2495ms total)
T0BF0 659:849 JLINK_GetDebugInfo(0x102 = JLINKARM_DEBUG_INFO_MTB_ADDR_INDEX) -- Value=0x00000000  returns 0x00 (0000ms, 2495ms total)
T0BF0 659:849 JLINK_GetDebugInfo(0x103 = JLINKARM_DEBUG_INFO_TPIU_ADDR_INDEX) -- Value=0xE0040000  returns 0x00 (0000ms, 2495ms total)
T0BF0 659:849 JLINK_GetDebugInfo(0x104 = JLINKARM_DEBUG_INFO_ITM_ADDR_INDEX) -- Value=0xE0000000  returns 0x00 (0000ms, 2495ms total)
T0BF0 659:849 JLINK_GetDebugInfo(0x105 = JLINKARM_DEBUG_INFO_DWT_ADDR_INDEX) -- Value=0xE0001000  returns 0x00 (0000ms, 2495ms total)
T0BF0 659:849 JLINK_GetDebugInfo(0x106 = JLINKARM_DEBUG_INFO_FPB_ADDR_INDEX) -- Value=0xE0002000  returns 0x00 (0000ms, 2495ms total)
T0BF0 659:849 JLINK_GetDebugInfo(0x107 = JLINKARM_DEBUG_INFO_NVIC_ADDR_INDEX) -- Value=0xE000E000  returns 0x00 (0000ms, 2495ms total)
T0BF0 659:849 JLINK_GetDebugInfo(0x10C = JLINKARM_DEBUG_INFO_DBG_ADDR_INDEX) -- Value=0xE000EDF0  returns 0x00 (0000ms, 2495ms total)
T0BF0 659:849 JLINK_GetDebugInfo(0x01 = Unknown) -- Value=0x00000001  returns 0x00 (0000ms, 2495ms total)
T0BF0 659:849 JLINK_ReadMemU32(0xE000ED00, 0x0001 Items, ...) -- CPU_ReadMem(4 bytes @ 0xE000ED00) - Data: 41 C2 0F 41  returns 0x01 (0001ms, 2496ms total)
T0BF0 659:850 JLINK_GetDebugInfo(0x10F = JLINKARM_DEBUG_INFO_HAS_CORTEX_M_SECURITY_EXT_INDEX) -- Value=0x00000000  returns 0x00 (0000ms, 2496ms total)
T0BF0 659:850 JLINK_SetResetType(JLINKARM_CM3_RESET_TYPE_NORMAL)  returns JLINKARM_CM3_RESET_TYPE_NORMAL (0000ms, 2496ms total)
T0BF0 659:850 JLINK_Reset() -- CPU is running -- CPU_WriteMem(4 bytes @ 0xE000EDF0) -- CPU is running -- CPU_WriteMem(4 bytes @ 0xE000EDFC)Reset: Halt core after reset via DEMCR.VC_CORERESET. >0x35 TIF>Reset: Reset device via AIRCR.SYSRESETREQ. -- CPU is running -- CPU_WriteMem(4 bytes @ 0xE000ED0C) >0x0D TIF> >0x28 TIF> -- CPU_ReadMem(4 bytes @ 0xE000EDF0) -- CPU_ReadMem(4 bytes @ 0xE000EDF0) -- CPU is running -- CPU_WriteMem(4 bytes @ 0xE000EDF0) -- CPU is running -- CPU_WriteMem(4 bytes @ 0xE000EDFC)
 -- CPU_ReadMem(4 bytes @ 0xE000EDF0) -- CPU_WriteMem(4 bytes @ 0xE0002000) -- CPU_ReadMem(4 bytes @ 0xE000EDFC) -- CPU_ReadMem(4 bytes @ 0xE0001000) (0089ms, 2585ms total)
T0BF0 659:940 JLINK_Halt()  returns 0x00 (0000ms, 2585ms total)
T0BF0 659:940 JLINK_ReadMemU32(0xE000EDF0, 0x0001 Items, ...) -- CPU_ReadMem(4 bytes @ 0xE000EDF0) - Data: 03 00 03 00  returns 0x01 (0000ms, 2585ms total)
T0BF0 659:940 JLINK_WriteU32(0xE000EDF0, 0xA05F0003) -- CPU_WriteMem(4 bytes @ 0xE000EDF0)  returns 0x00 (0001ms, 2586ms total)
T0BF0 659:941 JLINK_WriteU32(0xE000EDFC, 0x01000000) -- CPU_WriteMem(4 bytes @ 0xE000EDFC)  returns 0x00 (0001ms, 2587ms total)
T0BF0 660:005 JLINK_GetHWStatus(...)  returns 0x00 (0001ms, 2588ms total)
T0BF0 660:040 JLINK_GetNumBPUnits(Type = 0xFFFFFF00)  returns 0x06 (0000ms, 2588ms total)
T0BF0 660:040 JLINK_GetNumBPUnits(Type = 0xF0)  returns 0x2000 (0000ms, 2588ms total)
T0BF0 660:040 JLINK_GetNumWPUnits()  returns 0x04 (0000ms, 2588ms total)
T0BF0 660:069 JLINK_GetSpeed()  returns 0xFA0 (0000ms, 2588ms total)
T0BF0 660:091 JLINK_ReadMemU32(0xE000E004, 0x0001 Items, ...) -- CPU_ReadMem(4 bytes @ 0xE000E004) - Data: 02 00 00 00  returns 0x01 (0001ms, 2589ms total)
T0BF0 660:092 JLINK_ReadMemU32(0xE000E004, 0x0001 Items, ...) -- CPU_ReadMem(4 bytes @ 0xE000E004) - Data: 02 00 00 00  returns 0x01 (0000ms, 2589ms total)
T0BF0 660:092 JLINK_WriteMemEx(0xE0001000, 0x001C Bytes, ..., Flags = 0x02000004) - Data: 01 00 00 00 00 00 00 00 00 00 00 00 00 00 00 00 ... -- CPU_WriteMem(28 bytes @ 0xE0001000)  returns 0x1C (0002ms, 2591ms total)
T0BF0 660:094 JLINK_Halt()  returns 0x00 (0000ms, 2591ms total)
T0BF0 660:094 JLINK_IsHalted()  returns TRUE (0000ms, 2591ms total)
T0BF0 660:100 JLINK_WriteMem(0x20000000, 0x0180 Bytes, ...) - Data: 00 BE 0A E0 0D 78 2D 06 68 40 08 24 40 00 00 D3 ... -- CPU_WriteMem(384 bytes @ 0x20000000)  returns 0x180 (0003ms, 2594ms total)
T0BF0 660:103 JLINK_WriteReg(R0, 0x08000000)  returns 0x00 (0000ms, 2594ms total)
T0BF0 660:103 JLINK_WriteReg(R1, 0x00B71B00)  returns 0x00 (0000ms, 2594ms total)
T0BF0 660:103 JLINK_WriteReg(R2, 0x00000001)  returns 0x00 (0000ms, 2594ms total)
T0BF0 660:103 JLINK_WriteReg(R3, 0x00000000)  returns 0x00 (0000ms, 2594ms total)
T0BF0 660:103 JLINK_WriteReg(R4, 0x00000000)  returns 0x00 (0000ms, 2594ms total)
T0BF0 660:103 JLINK_WriteReg(R5, 0x00000000)  returns 0x00 (0000ms, 2594ms total)
T0BF0 660:103 JLINK_WriteReg(R6, 0x00000000)  returns 0x00 (0000ms, 2594ms total)
T0BF0 660:103 JLINK_WriteReg(R7, 0x00000000)  returns 0x00 (0000ms, 2594ms total)
T0BF0 660:103 JLINK_WriteReg(R8, 0x00000000)  returns 0x00 (0000ms, 2594ms total)
T0BF0 660:103 JLINK_WriteReg(R9, 0x2000017C)  returns 0x00 (0000ms, 2594ms total)
T0BF0 660:103 JLINK_WriteReg(R10, 0x00000000)  returns 0x00 (0000ms, 2594ms total)
T0BF0 660:103 JLINK_WriteReg(R11, 0x00000000)  returns 0x00 (0000ms, 2594ms total)
T0BF0 660:103 JLINK_WriteReg(R12, 0x00000000)  returns 0x00 (0000ms, 2594ms total)
T0BF0 660:103 JLINK_WriteReg(R13 (SP), 0x20001000)  returns 0x00 (0000ms, 2594ms total)
T0BF0 660:103 JLINK_WriteReg(R14, 0x20000001)  returns 0x00 (0000ms, 2594ms total)
T0BF0 660:103 JLINK_WriteReg(R15 (PC), 0x20000054)  returns 0x00 (0000ms, 2594ms total)
T0BF0 660:103 JLINK_WriteReg(XPSR, 0x01000000)  returns 0x00 (0001ms, 2595ms total)
T0BF0 660:104 JLINK_WriteReg(MSP, 0x20001000)  returns 0x00 (0000ms, 2595ms total)
T0BF0 660:104 JLINK_WriteReg(PSP, 0x20001000)  returns 0x00 (0000ms, 2595ms total)
T0BF0 660:104 JLINK_WriteReg(CFBP, 0x00000000)  returns 0x00 (0000ms, 2595ms total)
T0BF0 660:104 JLINK_SetBPEx(Addr = 0x20000000, Type = 0xFFFFFFF2) -- CPU_ReadMem(2 bytes @ 0x20000000)  returns 0x00000001 (0000ms, 2595ms total)
T0BF0 660:104 JLINK_Go() -- CPU_WriteMem(2 bytes @ 0x20000000) -- CPU_ReadMem(4 bytes @ 0xE0001000) -- CPU_WriteMem(4 bytes @ 0xE0002008) -- CPU_WriteMem(4 bytes @ 0xE000200C) -- CPU_WriteMem(4 bytes @ 0xE0002010) -- CPU_WriteMem(4 bytes @ 0xE0002014) -- CPU_WriteMem(4 bytes @ 0xE0002018) -- CPU_WriteMem(4 bytes @ 0xE000201C) -- CPU_WriteMem(4 bytes @ 0xE0001004) (0004ms, 2599ms total)
T0BF0 660:108 JLINK_IsHalted() -- CPU_ReadMem(2 bytes @ 0x20000000)  returns TRUE (0002ms, 2601ms total)
T0BF0 660:110 JLINK_ReadReg(R15 (PC))  returns 0x20000000 (0000ms, 2599ms total)
T0BF0 660:110 JLINK_ClrBPEx(BPHandle = 0x00000001)  returns 0x00 (0000ms, 2599ms total)
T0BF0 660:110 JLINK_ReadReg(R0)  returns 0x00000000 (0000ms, 2599ms total)
T0BF0 660:111 JLINK_WriteReg(R0, 0x08000000)  returns 0x00 (0000ms, 2599ms total)
T0BF0 660:111 JLINK_WriteReg(R1, 0x00004000)  returns 0x00 (0000ms, 2599ms total)
T0BF0 660:111 JLINK_WriteReg(R2, 0x000000FF)  returns 0x00 (0000ms, 2599ms total)
T0BF0 660:111 JLINK_WriteReg(R3, 0x00000000)  returns 0x00 (0000ms, 2599ms total)
T0BF0 660:111 JLINK_WriteReg(R4, 0x00000000)  returns 0x00 (0000ms, 2599ms total)
T0BF0 660:111 JLINK_WriteReg(R5, 0x00000000)  returns 0x00 (0000ms, 2599ms total)
T0BF0 660:111 JLINK_WriteReg(R6, 0x00000000)  returns 0x00 (0000ms, 2599ms total)
T0BF0 660:111 JLINK_WriteReg(R7, 0x00000000)  returns 0x00 (0000ms, 2599ms total)
T0BF0 660:111 JLINK_WriteReg(R8, 0x00000000)  returns 0x00 (0000ms, 2599ms total)
T0BF0 660:111 JLINK_WriteReg(R9, 0x2000017C)  returns 0x00 (0000ms, 2599ms total)
T0BF0 660:111 JLINK_WriteReg(R10, 0x00000000)  returns 0x00 (0000ms, 2599ms total)
T0BF0 660:111 JLINK_WriteReg(R11, 0x00000000)  returns 0x00 (0000ms, 2599ms total)
T0BF0 660:111 JLINK_WriteReg(R12, 0x00000000)  returns 0x00 (0000ms, 2599ms total)
T0BF0 660:111 JLINK_WriteReg(R13 (SP), 0x20001000)  returns 0x00 (0000ms, 2599ms total)
T0BF0 660:111 JLINK_WriteReg(R14, 0x20000001)  returns 0x00 (0000ms, 2599ms total)
T0BF0 660:111 JLINK_WriteReg(R15 (PC), 0x20000020)  returns 0x00 (0000ms, 2599ms total)
T0BF0 660:111 JLINK_WriteReg(XPSR, 0x01000000)  returns 0x00 (0000ms, 2599ms total)
T0BF0 660:111 JLINK_WriteReg(MSP, 0x20001000)  returns 0x00 (0000ms, 2599ms total)
T0BF0 660:111 JLINK_WriteReg(PSP, 0x20001000)  returns 0x00 (0000ms, 2599ms total)
T0BF0 660:111 JLINK_WriteReg(CFBP, 0x00000000)  returns 0x00 (0000ms, 2599ms total)
T0BF0 660:111 JLINK_SetBPEx(Addr = 0x20000000, Type = 0xFFFFFFF2)  returns 0x00000002 (0001ms, 2600ms total)
T0BF0 660:112 JLINK_Go() -- CPU_ReadMem(4 bytes @ 0xE0001000) (0001ms, 2601ms total)
T0BF0 660:113 JLINK_IsHalted() -- CPU_ReadMem(2 bytes @ 0x20000000)  returns TRUE (0003ms, 2604ms total)
T0BF0 660:116 JLINK_ReadReg(R15 (PC))  returns 0x20000000 (0000ms, 2601ms total)
T0BF0 660:116 JLINK_ClrBPEx(BPHandle = 0x00000002)  returns 0x00 (0000ms, 2601ms total)
T0BF0 660:116 JLINK_ReadReg(R0)  returns 0x00000001 (0000ms, 2601ms total)
T0BF0 660:116 JLINK_WriteReg(R0, 0x08000000)  returns 0x00 (0000ms, 2601ms total)
T0BF0 660:116 JLINK_WriteReg(R1, 0x00004000)  returns 0x00 (0000ms, 2601ms total)
T0BF0 660:116 JLINK_WriteReg(R2, 0x000000FF)  returns 0x00 (0000ms, 2601ms total)
T0BF0 660:116 JLINK_WriteReg(R3, 0x00000000)  returns 0x00 (0000ms, 2601ms total)
T0BF0 660:116 JLINK_WriteReg(R4, 0x00000000)  returns 0x00 (0000ms, 2601ms total)
T0BF0 660:116 JLINK_WriteReg(R5, 0x00000000)  returns 0x00 (0000ms, 2601ms total)
T0BF0 660:116 JLINK_WriteReg(R6, 0x00000000)  returns 0x00 (0001ms, 2602ms total)
T0BF0 660:117 JLINK_WriteReg(R7, 0x00000000)  returns 0x00 (0000ms, 2602ms total)
T0BF0 660:117 JLINK_WriteReg(R8, 0x00000000)  returns 0x00 (0000ms, 2602ms total)
T0BF0 660:117 JLINK_WriteReg(R9, 0x2000017C)  returns 0x00 (0000ms, 2602ms total)
T0BF0 660:117 JLINK_WriteReg(R10, 0x00000000)  returns 0x00 (0000ms, 2602ms total)
T0BF0 660:117 JLINK_WriteReg(R11, 0x00000000)  returns 0x00 (0000ms, 2602ms total)
T0BF0 660:117 JLINK_WriteReg(R12, 0x00000000)  returns 0x00 (0000ms, 2602ms total)
T0BF0 660:117 JLINK_WriteReg(R13 (SP), 0x20001000)  returns 0x00 (0000ms, 2602ms total)
T0BF0 660:117 JLINK_WriteReg(R14, 0x20000001)  returns 0x00 (0000ms, 2602ms total)
T0BF0 660:117 JLINK_WriteReg(R15 (PC), 0x200000BC)  returns 0x00 (0000ms, 2602ms total)
T0BF0 660:117 JLINK_WriteReg(XPSR, 0x01000000)  returns 0x00 (0000ms, 2602ms total)
T0BF0 660:117 JLINK_WriteReg(MSP, 0x20001000)  returns 0x00 (0000ms, 2602ms total)
T0BF0 660:117 JLINK_WriteReg(PSP, 0x20001000)  returns 0x00 (0000ms, 2602ms total)
T0BF0 660:117 JLINK_WriteReg(CFBP, 0x00000000)  returns 0x00 (0000ms, 2602ms total)
T0BF0 660:117 JLINK_SetBPEx(Addr = 0x20000000, Type = 0xFFFFFFF2)  returns 0x00000003 (0000ms, 2602ms total)
T0BF0 660:117 JLINK_Go() -- CPU_ReadMem(4 bytes @ 0xE0001000) (0002ms, 2604ms total)
T0BF0 660:119 JLINK_IsHalted()  returns FALSE (0001ms, 2605ms total)
T0BF0 660:193 JLINK_IsHalted()  returns FALSE (0000ms, 2604ms total)
T0BF0 660:195 JLINK_IsHalted()  returns FALSE (0001ms, 2605ms total)
T0BF0 660:197 JLINK_IsHalted()  returns FALSE (0000ms, 2604ms total)
T0BF0 660:199 JLINK_IsHalted()  returns FALSE (0000ms, 2604ms total)
T0BF0 660:201 JLINK_IsHalted()  returns FALSE (0000ms, 2604ms total)
T0BF0 660:203 JLINK_IsHalted()  returns FALSE (0000ms, 2604ms total)
T0BF0 660:205 JLINK_IsHalted()  returns FALSE (0000ms, 2604ms total)
T0BF0 660:207 JLINK_IsHalted()  returns FALSE (0001ms, 2605ms total)
T0BF0 660:209 JLINK_IsHalted()  returns FALSE (0001ms, 2605ms total)
T0BF0 660:211 JLINK_IsHalted()  returns FALSE (0000ms, 2604ms total)
T0BF0 660:216 JLINK_IsHalted()  returns FALSE (0000ms, 2604ms total)
T0BF0 660:218 JLINK_IsHalted()  returns FALSE (0001ms, 2605ms total)
T0BF0 660:220 JLINK_IsHalted()  returns FALSE (0000ms, 2604ms total)
T0BF0 660:222 JLINK_IsHalted()  returns FALSE (0000ms, 2604ms total)
T0BF0 660:224 JLINK_IsHalted()  returns FALSE (0000ms, 2604ms total)
T0BF0 660:226 JLINK_IsHalted()  returns FALSE (0000ms, 2604ms total)
T0BF0 660:233 JLINK_IsHalted()  returns FALSE (0001ms, 2605ms total)
T0BF0 660:235 JLINK_IsHalted()  returns FALSE (0000ms, 2604ms total)
T0BF0 660:237 JLINK_IsHalted()  returns FALSE (0000ms, 2604ms total)
T0BF0 660:239 JLINK_IsHalted()  returns FALSE (0000ms, 2604ms total)
T0BF0 660:241 JLINK_IsHalted()  returns FALSE (0000ms, 2604ms total)
T0BF0 660:249 JLINK_IsHalted()  returns FALSE (0000ms, 2604ms total)
T0BF0 660:251 JLINK_IsHalted()  returns FALSE (0000ms, 2604ms total)
T0BF0 660:253 JLINK_IsHalted()  returns FALSE (0000ms, 2604ms total)
T0BF0 660:255 JLINK_IsHalted()  returns FALSE (0000ms, 2604ms total)
T0BF0 660:257 JLINK_IsHalted()  returns FALSE (0000ms, 2604ms total)
T0BF0 660:263 JLINK_IsHalted()  returns FALSE (0000ms, 2604ms total)
T0BF0 660:265 JLINK_IsHalted()  returns FALSE (0000ms, 2604ms total)
T0BF0 660:267 JLINK_IsHalted()  returns FALSE (0000ms, 2604ms total)
T0BF0 660:269 JLINK_IsHalted()  returns FALSE (0000ms, 2604ms total)
T0BF0 660:271 JLINK_IsHalted()  returns FALSE (0000ms, 2604ms total)
T0BF0 660:273 JLINK_IsHalted()  returns FALSE (0000ms, 2604ms total)
T0BF0 660:280 JLINK_IsHalted()  returns FALSE (0000ms, 2604ms total)
T0BF0 660:282 JLINK_IsHalted()  returns FALSE (0000ms, 2604ms total)
T0BF0 660:284 JLINK_IsHalted()  returns FALSE (0000ms, 2604ms total)
T0BF0 660:286 JLINK_IsHalted()  returns FALSE (0000ms, 2604ms total)
T0BF0 660:288 JLINK_IsHalted()  returns FALSE (0000ms, 2604ms total)
T0BF0 660:290 JLINK_IsHalted()  returns FALSE (0000ms, 2604ms total)
T0BF0 660:292 JLINK_IsHalted()  returns FALSE (0000ms, 2604ms total)
T0BF0 660:294 JLINK_IsHalted()  returns FALSE (0000ms, 2604ms total)
T0BF0 660:296 JLINK_IsHalted()  returns FALSE (0000ms, 2604ms total)
T0BF0 660:298 JLINK_IsHalted()  returns FALSE (0000ms, 2604ms total)
T0BF0 660:300 JLINK_IsHalted()  returns FALSE (0001ms, 2605ms total)
T0BF0 660:303 JLINK_IsHalted()  returns FALSE (0000ms, 2604ms total)
T0BF0 660:305 JLINK_IsHalted()  returns FALSE (0001ms, 2605ms total)
T0BF0 660:308 JLINK_IsHalted()  returns FALSE (0000ms, 2604ms total)
T0BF0 660:310 JLINK_IsHalted()  returns FALSE (0000ms, 2604ms total)
T0BF0 660:312 JLINK_IsHalted()  returns FALSE (0000ms, 2604ms total)
T0BF0 660:314 JLINK_IsHalted()  returns FALSE (0000ms, 2604ms total)
T0BF0 660:316 JLINK_IsHalted()  returns FALSE (0000ms, 2604ms total)
T0BF0 660:318 JLINK_IsHalted()  returns FALSE (0000ms, 2604ms total)
T0BF0 660:320 JLINK_IsHalted()  returns FALSE (0000ms, 2604ms total)
T0BF0 660:322 JLINK_IsHalted()  returns FALSE (0000ms, 2604ms total)
T0BF0 660:325 JLINK_IsHalted()  returns FALSE (0000ms, 2604ms total)
T0BF0 660:327 JLINK_IsHalted()  returns FALSE (0000ms, 2604ms total)
T0BF0 660:329 JLINK_IsHalted()  returns FALSE (0000ms, 2604ms total)
T0BF0 660:331 JLINK_IsHalted()  returns FALSE (0000ms, 2604ms total)
T0BF0 660:333 JLINK_IsHalted()  returns FALSE (0000ms, 2604ms total)
T0BF0 660:335 JLINK_IsHalted()  returns FALSE (0000ms, 2604ms total)
T0BF0 660:377 JLINK_IsHalted()  returns FALSE (0000ms, 2604ms total)
T0BF0 660:379 JLINK_IsHalted()  returns FALSE (0001ms, 2605ms total)
T0BF0 660:382 JLINK_IsHalted()  returns FALSE (0000ms, 2604ms total)
T0BF0 660:384 JLINK_IsHalted()  returns FALSE (0000ms, 2604ms total)
T0BF0 660:385 JLINK_IsHalted()  returns FALSE (0000ms, 2604ms total)
T0BF0 660:388 JLINK_IsHalted()  returns FALSE (0000ms, 2604ms total)
T0BF0 660:390 JLINK_IsHalted()  returns FALSE (0000ms, 2604ms total)
T0BF0 660:392 JLINK_IsHalted()  returns FALSE (0000ms, 2604ms total)
T0BF0 660:394 JLINK_IsHalted()  returns FALSE (0000ms, 2604ms total)
T0BF0 660:396 JLINK_IsHalted()  returns FALSE (0000ms, 2604ms total)
T0BF0 660:398 JLINK_IsHalted()  returns FALSE (0000ms, 2604ms total)
T0BF0 660:400 JLINK_IsHalted()  returns FALSE (0000ms, 2604ms total)
T0BF0 660:411 JLINK_IsHalted()  returns FALSE (0000ms, 2604ms total)
T0BF0 660:413 JLINK_IsHalted()  returns FALSE (0000ms, 2604ms total)
T0BF0 660:415 JLINK_IsHalted()  returns FALSE (0001ms, 2605ms total)
T0BF0 660:417 JLINK_IsHalted()  returns FALSE (0001ms, 2605ms total)
T0BF0 660:419 JLINK_IsHalted()  returns FALSE (0000ms, 2604ms total)
T0BF0 660:421 JLINK_IsHalted()  returns FALSE (0000ms, 2604ms total)
T0BF0 660:423 JLINK_IsHalted()  returns FALSE (0000ms, 2604ms total)
T0BF0 660:425 JLINK_IsHalted()  returns FALSE (0000ms, 2604ms total)
T0BF0 660:427 JLINK_IsHalted()  returns FALSE (0001ms, 2605ms total)
T0BF0 660:429 JLINK_IsHalted()  returns FALSE (0001ms, 2605ms total)
T0BF0 660:431 JLINK_IsHalted()  returns FALSE (0000ms, 2604ms total)
T0BF0 660:433 JLINK_IsHalted()  returns FALSE (0000ms, 2604ms total)
T0BF0 660:435 JLINK_IsHalted()  returns FALSE (0001ms, 2605ms total)
T0BF0 660:437 JLINK_IsHalted()  returns FALSE (0001ms, 2605ms total)
T0BF0 660:439 JLINK_IsHalted()  returns FALSE (0001ms, 2605ms total)
T0BF0 660:442 JLINK_IsHalted()  returns FALSE (0000ms, 2604ms total)
T0BF0 660:444 JLINK_IsHalted()  returns FALSE (0001ms, 2605ms total)
T0BF0 660:453 JLINK_IsHalted() -- CPU_ReadMem(2 bytes @ 0x20000000)  returns TRUE (0003ms, 2607ms total)
T0BF0 660:456 JLINK_ReadReg(R15 (PC))  returns 0x20000000 (0000ms, 2604ms total)
T0BF0 660:456 JLINK_ClrBPEx(BPHandle = 0x00000003)  returns 0x00 (0000ms, 2604ms total)
T0BF0 660:456 JLINK_ReadReg(R0)  returns 0x00000000 (0000ms, 2604ms total)
T0BF0 660:457 JLINK_WriteReg(R0, 0x00000001)  returns 0x00 (0000ms, 2604ms total)
T0BF0 660:457 JLINK_WriteReg(R1, 0x00004000)  returns 0x00 (0000ms, 2604ms total)
T0BF0 660:457 JLINK_WriteReg(R2, 0x000000FF)  returns 0x00 (0000ms, 2604ms total)
T0BF0 660:457 JLINK_WriteReg(R3, 0x00000000)  returns 0x00 (0000ms, 2604ms total)
T0BF0 660:457 JLINK_WriteReg(R4, 0x00000000)  returns 0x00 (0000ms, 2604ms total)
T0BF0 660:457 JLINK_WriteReg(R5, 0x00000000)  returns 0x00 (0000ms, 2604ms total)
T0BF0 660:457 JLINK_WriteReg(R6, 0x00000000)  returns 0x00 (0000ms, 2604ms total)
T0BF0 660:457 JLINK_WriteReg(R7, 0x00000000)  returns 0x00 (0000ms, 2604ms total)
T0BF0 660:457 JLINK_WriteReg(R8, 0x00000000)  returns 0x00 (0000ms, 2604ms total)
T0BF0 660:457 JLINK_WriteReg(R9, 0x2000017C)  returns 0x00 (0000ms, 2604ms total)
T0BF0 660:457 JLINK_WriteReg(R10, 0x00000000)  returns 0x00 (0000ms, 2604ms total)
T0BF0 660:457 JLINK_WriteReg(R11, 0x00000000)  returns 0x00 (0000ms, 2604ms total)
T0BF0 660:457 JLINK_WriteReg(R12, 0x00000000)  returns 0x00 (0000ms, 2604ms total)
T0BF0 660:457 JLINK_WriteReg(R13 (SP), 0x20001000)  returns 0x00 (0000ms, 2604ms total)
T0BF0 660:457 JLINK_WriteReg(R14, 0x20000001)  returns 0x00 (0000ms, 2604ms total)
T0BF0 660:457 JLINK_WriteReg(R15 (PC), 0x20000082)  returns 0x00 (0000ms, 2604ms total)
T0BF0 660:457 JLINK_WriteReg(XPSR, 0x01000000)  returns 0x00 (0000ms, 2604ms total)
T0BF0 660:457 JLINK_WriteReg(MSP, 0x20001000)  returns 0x00 (0001ms, 2605ms total)
T0BF0 660:458 JLINK_WriteReg(PSP, 0x20001000)  returns 0x00 (0000ms, 2605ms total)
T0BF0 660:458 JLINK_WriteReg(CFBP, 0x00000000)  returns 0x00 (0000ms, 2605ms total)
T0BF0 660:458 JLINK_SetBPEx(Addr = 0x20000000, Type = 0xFFFFFFF2)  returns 0x00000004 (0000ms, 2605ms total)
T0BF0 660:458 JLINK_Go() -- CPU_ReadMem(4 bytes @ 0xE0001000) (0002ms, 2607ms total)
T0BF0 660:460 JLINK_IsHalted() -- CPU_ReadMem(2 bytes @ 0x20000000)  returns TRUE (0002ms, 2609ms total)
T0BF0 660:462 JLINK_ReadReg(R15 (PC))  returns 0x20000000 (0000ms, 2607ms total)
T0BF0 660:462 JLINK_ClrBPEx(BPHandle = 0x00000004)  returns 0x00 (0000ms, 2607ms total)
T0BF0 660:462 JLINK_ReadReg(R0)  returns 0x00000000 (0000ms, 2607ms total)
T0BF0 660:567 JLINK_WriteMem(0x20000000, 0x0180 Bytes, ...) - Data: 00 BE 0A E0 0D 78 2D 06 68 40 08 24 40 00 00 D3 ... -- CPU_WriteMem(384 bytes @ 0x20000000)  returns 0x180 (0002ms, 2609ms total)
T0BF0 660:569 JLINK_WriteReg(R0, 0x08000000)  returns 0x00 (0000ms, 2609ms total)
T0BF0 660:569 JLINK_WriteReg(R1, 0x00B71B00)  returns 0x00 (0000ms, 2609ms total)
T0BF0 660:569 JLINK_WriteReg(R2, 0x00000002)  returns 0x00 (0001ms, 2610ms total)
T0BF0 660:570 JLINK_WriteReg(R3, 0x00000000)  returns 0x00 (0000ms, 2610ms total)
T0BF0 660:570 JLINK_WriteReg(R4, 0x00000000)  returns 0x00 (0000ms, 2610ms total)
T0BF0 660:570 JLINK_WriteReg(R5, 0x00000000)  returns 0x00 (0000ms, 2610ms total)
T0BF0 660:570 JLINK_WriteReg(R6, 0x00000000)  returns 0x00 (0000ms, 2610ms total)
T0BF0 660:570 JLINK_WriteReg(R7, 0x00000000)  returns 0x00 (0000ms, 2610ms total)
T0BF0 660:570 JLINK_WriteReg(R8, 0x00000000)  returns 0x00 (0000ms, 2610ms total)
T0BF0 660:570 JLINK_WriteReg(R9, 0x2000017C)  returns 0x00 (0000ms, 2610ms total)
T0BF0 660:570 JLINK_WriteReg(R10, 0x00000000)  returns 0x00 (0000ms, 2610ms total)
T0BF0 660:570 JLINK_WriteReg(R11, 0x00000000)  returns 0x00 (0000ms, 2610ms total)
T0BF0 660:570 JLINK_WriteReg(R12, 0x00000000)  returns 0x00 (0000ms, 2610ms total)
T0BF0 660:570 JLINK_WriteReg(R13 (SP), 0x20001000)  returns 0x00 (0001ms, 2611ms total)
T0BF0 660:571 JLINK_WriteReg(R14, 0x20000001)  returns 0x00 (0000ms, 2611ms total)
T0BF0 660:571 JLINK_WriteReg(R15 (PC), 0x20000054)  returns 0x00 (0000ms, 2611ms total)
T0BF0 660:571 JLINK_WriteReg(XPSR, 0x01000000)  returns 0x00 (0000ms, 2611ms total)
T0BF0 660:571 JLINK_WriteReg(MSP, 0x20001000)  returns 0x00 (0000ms, 2611ms total)
T0BF0 660:571 JLINK_WriteReg(PSP, 0x20001000)  returns 0x00 (0000ms, 2611ms total)
T0BF0 660:571 JLINK_WriteReg(CFBP, 0x00000000)  returns 0x00 (0000ms, 2611ms total)
T0BF0 660:571 JLINK_SetBPEx(Addr = 0x20000000, Type = 0xFFFFFFF2) -- CPU_ReadMem(2 bytes @ 0x20000000)  returns 0x00000005 (0001ms, 2612ms total)
T0BF0 660:572 JLINK_Go() -- CPU_WriteMem(2 bytes @ 0x20000000) -- CPU_ReadMem(4 bytes @ 0xE0001000) (0002ms, 2614ms total)
T0BF0 660:574 JLINK_IsHalted() -- CPU_ReadMem(2 bytes @ 0x20000000)  returns TRUE (0003ms, 2617ms total)
T0BF0 660:577 JLINK_ReadReg(R15 (PC))  returns 0x20000000 (0000ms, 2614ms total)
T0BF0 660:577 JLINK_ClrBPEx(BPHandle = 0x00000005)  returns 0x00 (0000ms, 2614ms total)
T0BF0 660:577 JLINK_ReadReg(R0)  returns 0x00000000 (0000ms, 2614ms total)
T0BF0 660:579 JLINK_WriteMem(0x20000180, 0x0280 Bytes, ...) - Data: B8 07 00 20 9D 01 00 08 E9 13 00 08 9D 13 00 08 ... -- CPU_WriteMem(640 bytes @ 0x20000180)  returns 0x280 (0003ms, 2618ms total)
T0BF0 660:582 JLINK_WriteMem(0x20000400, 0x0180 Bytes, ...) - Data: 27 48 00 F0 61 FB 08 A8 00 F0 99 FD 00 20 8D F8 ... -- CPU_WriteMem(384 bytes @ 0x20000400)  returns 0x180 (0003ms, 2621ms total)
T0BF0 660:585 JLINK_WriteReg(R0, 0x08000000)  returns 0x00 (0000ms, 2621ms total)
T0BF0 660:585 JLINK_WriteReg(R1, 0x00000400)  returns 0x00 (0000ms, 2621ms total)
T0BF0 660:585 JLINK_WriteReg(R2, 0x20000180)  returns 0x00 (0000ms, 2621ms total)
T0BF0 660:585 JLINK_WriteReg(R3, 0x00000000)  returns 0x00 (0000ms, 2621ms total)
T0BF0 660:585 JLINK_WriteReg(R4, 0x00000000)  returns 0x00 (0000ms, 2621ms total)
T0BF0 660:585 JLINK_WriteReg(R5, 0x00000000)  returns 0x00 (0001ms, 2622ms total)
T0BF0 660:586 JLINK_WriteReg(R6, 0x00000000)  returns 0x00 (0000ms, 2622ms total)
T0BF0 660:586 JLINK_WriteReg(R7, 0x00000000)  returns 0x00 (0000ms, 2622ms total)
T0BF0 660:586 JLINK_WriteReg(R8, 0x00000000)  returns 0x00 (0000ms, 2622ms total)
T0BF0 660:586 JLINK_WriteReg(R9, 0x2000017C)  returns 0x00 (0000ms, 2622ms total)
T0BF0 660:586 JLINK_WriteReg(R10, 0x00000000)  returns 0x00 (0000ms, 2622ms total)
T0BF0 660:586 JLINK_WriteReg(R11, 0x00000000)  returns 0x00 (0000ms, 2622ms total)
T0BF0 660:586 JLINK_WriteReg(R12, 0x00000000)  returns 0x00 (0000ms, 2622ms total)
T0BF0 660:586 JLINK_WriteReg(R13 (SP), 0x20001000)  returns 0x00 (0000ms, 2622ms total)
T0BF0 660:586 JLINK_WriteReg(R14, 0x20000001)  returns 0x00 (0000ms, 2622ms total)
T0BF0 660:586 JLINK_WriteReg(R15 (PC), 0x20000108)  returns 0x00 (0000ms, 2622ms total)
T0BF0 660:587 JLINK_WriteReg(XPSR, 0x01000000)  returns 0x00 (0000ms, 2623ms total)
T0BF0 660:587 JLINK_WriteReg(MSP, 0x20001000)  returns 0x00 (0000ms, 2623ms total)
T0BF0 660:587 JLINK_WriteReg(PSP, 0x20001000)  returns 0x00 (0000ms, 2623ms total)
T0BF0 660:587 JLINK_WriteReg(CFBP, 0x00000000)  returns 0x00 (0000ms, 2623ms total)
T0BF0 660:587 JLINK_SetBPEx(Addr = 0x20000000, Type = 0xFFFFFFF2)  returns 0x00000006 (0000ms, 2623ms total)
T0BF0 660:587 JLINK_Go() -- CPU_ReadMem(4 bytes @ 0xE0001000) (0002ms, 2625ms total)
T0BF0 660:589 JLINK_IsHalted()  returns FALSE (0000ms, 2625ms total)
T0BF0 660:618 JLINK_IsHalted() -- CPU_ReadMem(2 bytes @ 0x20000000)  returns TRUE (0003ms, 2628ms total)
T0BF0 660:621 JLINK_ReadReg(R15 (PC))  returns 0x20000000 (0000ms, 2625ms total)
T0BF0 660:621 JLINK_ClrBPEx(BPHandle = 0x00000006)  returns 0x00 (0000ms, 2625ms total)
T0BF0 660:621 JLINK_ReadReg(R0)  returns 0x00000000 (0000ms, 2625ms total)
T0BF0 660:623 JLINK_WriteMem(0x20000180, 0x0280 Bytes, ...) - Data: 9D F8 0D 00 41 EA 00 20 00 B2 37 49 88 81 08 46 ... -- CPU_WriteMem(640 bytes @ 0x20000180)  returns 0x280 (0003ms, 2628ms total)
T0BF0 660:626 JLINK_WriteMem(0x20000400, 0x0180 Bytes, ...) - Data: 0B 10 40 EA 01 20 00 B2 73 49 08 80 9D F8 0E 10 ... -- CPU_WriteMem(384 bytes @ 0x20000400)  returns 0x180 (0002ms, 2630ms total)
T0BF0 660:628 JLINK_WriteReg(R0, 0x08000400)  returns 0x00 (0000ms, 2630ms total)
T0BF0 660:628 JLINK_WriteReg(R1, 0x00000400)  returns 0x00 (0000ms, 2630ms total)
T0BF0 660:628 JLINK_WriteReg(R2, 0x20000180)  returns 0x00 (0000ms, 2630ms total)
T0BF0 660:628 JLINK_WriteReg(R3, 0x00000000)  returns 0x00 (0000ms, 2630ms total)
T0BF0 660:629 JLINK_WriteReg(R4, 0x00000000)  returns 0x00 (0000ms, 2631ms total)
T0BF0 660:629 JLINK_WriteReg(R5, 0x00000000)  returns 0x00 (0000ms, 2631ms total)
T0BF0 660:629 JLINK_WriteReg(R6, 0x00000000)  returns 0x00 (0000ms, 2631ms total)
T0BF0 660:629 JLINK_WriteReg(R7, 0x00000000)  returns 0x00 (0000ms, 2631ms total)
T0BF0 660:629 JLINK_WriteReg(R8, 0x00000000)  returns 0x00 (0000ms, 2631ms total)
T0BF0 660:629 JLINK_WriteReg(R9, 0x2000017C)  returns 0x00 (0000ms, 2631ms total)
T0BF0 660:629 JLINK_WriteReg(R10, 0x00000000)  returns 0x00 (0000ms, 2631ms total)
T0BF0 660:629 JLINK_WriteReg(R11, 0x00000000)  returns 0x00 (0000ms, 2631ms total)
T0BF0 660:629 JLINK_WriteReg(R12, 0x00000000)  returns 0x00 (0000ms, 2631ms total)
T0BF0 660:629 JLINK_WriteReg(R13 (SP), 0x20001000)  returns 0x00 (0000ms, 2631ms total)
T0BF0 660:629 JLINK_WriteReg(R14, 0x20000001)  returns 0x00 (0001ms, 2632ms total)
T0BF0 660:630 JLINK_WriteReg(R15 (PC), 0x20000108)  returns 0x00 (0000ms, 2632ms total)
T0BF0 660:630 JLINK_WriteReg(XPSR, 0x01000000)  returns 0x00 (0000ms, 2632ms total)
T0BF0 660:630 JLINK_WriteReg(MSP, 0x20001000)  returns 0x00 (0000ms, 2632ms total)
T0BF0 660:630 JLINK_WriteReg(PSP, 0x20001000)  returns 0x00 (0000ms, 2632ms total)
T0BF0 660:630 JLINK_WriteReg(CFBP, 0x00000000)  returns 0x00 (0000ms, 2632ms total)
T0BF0 660:630 JLINK_SetBPEx(Addr = 0x20000000, Type = 0xFFFFFFF2)  returns 0x00000007 (0000ms, 2632ms total)
T0BF0 660:630 JLINK_Go() -- CPU_ReadMem(4 bytes @ 0xE0001000) (0002ms, 2634ms total)
T0BF0 660:632 JLINK_IsHalted()  returns FALSE (0001ms, 2635ms total)
T0BF0 660:635 JLINK_IsHalted()  returns FALSE (0000ms, 2634ms total)
T0BF0 660:637 JLINK_IsHalted() -- CPU_ReadMem(2 bytes @ 0x20000000)  returns TRUE (0003ms, 2637ms total)
T0BF0 660:640 JLINK_ReadReg(R15 (PC))  returns 0x20000000 (0000ms, 2634ms total)
T0BF0 660:640 JLINK_ClrBPEx(BPHandle = 0x00000007)  returns 0x00 (0000ms, 2634ms total)
T0BF0 660:640 JLINK_ReadReg(R0)  returns 0x00000000 (0000ms, 2634ms total)
T0BF0 660:642 JLINK_WriteMem(0x20000180, 0x0280 Bytes, ...) - Data: 04 21 0D F1 0B 00 01 F0 7B FD 00 20 17 49 C8 61 ... -- CPU_WriteMem(640 bytes @ 0x20000180)  returns 0x280 (0003ms, 2637ms total)
T0BF0 660:645 JLINK_WriteMem(0x20000400, 0x0180 Bytes, ...) - Data: 10 BD 00 00 00 66 00 40 70 B5 04 46 0D 46 00 26 ... -- CPU_WriteMem(384 bytes @ 0x20000400)  returns 0x180 (0002ms, 2639ms total)
T0BF0 660:647 JLINK_WriteReg(R0, 0x08000800)  returns 0x00 (0000ms, 2639ms total)
T0BF0 660:647 JLINK_WriteReg(R1, 0x00000400)  returns 0x00 (0000ms, 2639ms total)
T0BF0 660:647 JLINK_WriteReg(R2, 0x20000180)  returns 0x00 (0000ms, 2639ms total)
T0BF0 660:647 JLINK_WriteReg(R3, 0x00000000)  returns 0x00 (0000ms, 2639ms total)
T0BF0 660:647 JLINK_WriteReg(R4, 0x00000000)  returns 0x00 (0001ms, 2640ms total)
T0BF0 660:648 JLINK_WriteReg(R5, 0x00000000)  returns 0x00 (0000ms, 2640ms total)
T0BF0 660:648 JLINK_WriteReg(R6, 0x00000000)  returns 0x00 (0000ms, 2640ms total)
T0BF0 660:648 JLINK_WriteReg(R7, 0x00000000)  returns 0x00 (0000ms, 2640ms total)
T0BF0 660:648 JLINK_WriteReg(R8, 0x00000000)  returns 0x00 (0000ms, 2640ms total)
T0BF0 660:648 JLINK_WriteReg(R9, 0x2000017C)  returns 0x00 (0000ms, 2640ms total)
T0BF0 660:648 JLINK_WriteReg(R10, 0x00000000)  returns 0x00 (0000ms, 2640ms total)
T0BF0 660:648 JLINK_WriteReg(R11, 0x00000000)  returns 0x00 (0000ms, 2640ms total)
T0BF0 660:648 JLINK_WriteReg(R12, 0x00000000)  returns 0x00 (0000ms, 2640ms total)
T0BF0 660:648 JLINK_WriteReg(R13 (SP), 0x20001000)  returns 0x00 (0000ms, 2640ms total)
T0BF0 660:648 JLINK_WriteReg(R14, 0x20000001)  returns 0x00 (0001ms, 2641ms total)
T0BF0 660:649 JLINK_WriteReg(R15 (PC), 0x20000108)  returns 0x00 (0000ms, 2641ms total)
T0BF0 660:649 JLINK_WriteReg(XPSR, 0x01000000)  returns 0x00 (0000ms, 2641ms total)
T0BF0 660:649 JLINK_WriteReg(MSP, 0x20001000)  returns 0x00 (0000ms, 2641ms total)
T0BF0 660:649 JLINK_WriteReg(PSP, 0x20001000)  returns 0x00 (0000ms, 2641ms total)
T0BF0 660:649 JLINK_WriteReg(CFBP, 0x00000000)  returns 0x00 (0000ms, 2641ms total)
T0BF0 660:649 JLINK_SetBPEx(Addr = 0x20000000, Type = 0xFFFFFFF2)  returns 0x00000008 (0000ms, 2641ms total)
T0BF0 660:649 JLINK_Go() -- CPU_ReadMem(4 bytes @ 0xE0001000) (0002ms, 2643ms total)
T0BF0 660:651 JLINK_IsHalted()  returns FALSE (0001ms, 2644ms total)
T0BF0 660:662 JLINK_IsHalted() -- CPU_ReadMem(2 bytes @ 0x20000000)  returns TRUE (0003ms, 2646ms total)
T0BF0 660:665 JLINK_ReadReg(R15 (PC))  returns 0x20000000 (0000ms, 2643ms total)
T0BF0 660:665 JLINK_ClrBPEx(BPHandle = 0x00000008)  returns 0x00 (0000ms, 2643ms total)
T0BF0 660:665 JLINK_ReadReg(R0)  returns 0x00000000 (0000ms, 2643ms total)
T0BF0 660:667 JLINK_WriteMem(0x20000180, 0x0280 Bytes, ...) - Data: 03 E0 14 68 24 F0 80 04 14 60 CC 79 01 2C 04 D1 ... -- CPU_WriteMem(640 bytes @ 0x20000180)  returns 0x280 (0003ms, 2646ms total)
T0BF0 660:670 JLINK_WriteMem(0x20000400, 0x0180 Bytes, ...) - Data: C0 73 03 EB 00 13 5B 68 23 F0 0F 04 02 F5 C0 73 ... -- CPU_WriteMem(384 bytes @ 0x20000400)  returns 0x180 (0002ms, 2648ms total)
T0BF0 660:672 JLINK_WriteReg(R0, 0x08000C00)  returns 0x00 (0000ms, 2648ms total)
T0BF0 660:672 JLINK_WriteReg(R1, 0x00000400)  returns 0x00 (0000ms, 2648ms total)
T0BF0 660:672 JLINK_WriteReg(R2, 0x20000180)  returns 0x00 (0000ms, 2648ms total)
T0BF0 660:672 JLINK_WriteReg(R3, 0x00000000)  returns 0x00 (0000ms, 2648ms total)
T0BF0 660:672 JLINK_WriteReg(R4, 0x00000000)  returns 0x00 (0001ms, 2649ms total)
T0BF0 660:673 JLINK_WriteReg(R5, 0x00000000)  returns 0x00 (0000ms, 2649ms total)
T0BF0 660:673 JLINK_WriteReg(R6, 0x00000000)  returns 0x00 (0000ms, 2649ms total)
T0BF0 660:673 JLINK_WriteReg(R7, 0x00000000)  returns 0x00 (0000ms, 2649ms total)
T0BF0 660:673 JLINK_WriteReg(R8, 0x00000000)  returns 0x00 (0000ms, 2649ms total)
T0BF0 660:673 JLINK_WriteReg(R9, 0x2000017C)  returns 0x00 (0000ms, 2649ms total)
T0BF0 660:673 JLINK_WriteReg(R10, 0x00000000)  returns 0x00 (0000ms, 2649ms total)
T0BF0 660:673 JLINK_WriteReg(R11, 0x00000000)  returns 0x00 (0000ms, 2649ms total)
T0BF0 660:673 JLINK_WriteReg(R12, 0x00000000)  returns 0x00 (0000ms, 2649ms total)
T0BF0 660:674 JLINK_WriteReg(R13 (SP), 0x20001000)  returns 0x00 (0000ms, 2649ms total)
T0BF0 660:674 JLINK_WriteReg(R14, 0x20000001)  returns 0x00 (0000ms, 2649ms total)
T0BF0 660:674 JLINK_WriteReg(R15 (PC), 0x20000108)  returns 0x00 (0000ms, 2649ms total)
T0BF0 660:674 JLINK_WriteReg(XPSR, 0x01000000)  returns 0x00 (0000ms, 2649ms total)
T0BF0 660:674 JLINK_WriteReg(MSP, 0x20001000)  returns 0x00 (0000ms, 2649ms total)
T0BF0 660:674 JLINK_WriteReg(PSP, 0x20001000)  returns 0x00 (0000ms, 2649ms total)
T0BF0 660:674 JLINK_WriteReg(CFBP, 0x00000000)  returns 0x00 (0000ms, 2649ms total)
T0BF0 660:674 JLINK_SetBPEx(Addr = 0x20000000, Type = 0xFFFFFFF2)  returns 0x00000009 (0000ms, 2649ms total)
T0BF0 660:674 JLINK_Go() -- CPU_ReadMem(4 bytes @ 0xE0001000) (0002ms, 2651ms total)
T0BF0 660:677 JLINK_IsHalted()  returns FALSE (0000ms, 2652ms total)
T0BF0 660:691 JLINK_IsHalted() -- CPU_ReadMem(2 bytes @ 0x20000000)  returns TRUE (0003ms, 2655ms total)
T0BF0 660:694 JLINK_ReadReg(R15 (PC))  returns 0x20000000 (0000ms, 2652ms total)
T0BF0 660:694 JLINK_ClrBPEx(BPHandle = 0x00000009)  returns 0x00 (0000ms, 2652ms total)
T0BF0 660:694 JLINK_ReadReg(R0)  returns 0x00000000 (0000ms, 2652ms total)
T0BF0 660:696 JLINK_WriteMem(0x20000180, 0x0280 Bytes, ...) - Data: 01 68 21 F0 01 01 01 60 00 21 01 60 41 60 81 60 ... -- CPU_WriteMem(640 bytes @ 0x20000180)  returns 0x280 (0003ms, 2655ms total)
T0BF0 660:699 JLINK_WriteMem(0x20000400, 0x0180 Bytes, ...) - Data: 03 26 BE 40 B5 43 05 60 15 79 4E 00 B5 40 06 68 ... -- CPU_WriteMem(384 bytes @ 0x20000400)  returns 0x180 (0002ms, 2657ms total)
T0BF0 660:701 JLINK_WriteReg(R0, 0x08001000)  returns 0x00 (0000ms, 2657ms total)
T0BF0 660:701 JLINK_WriteReg(R1, 0x00000400)  returns 0x00 (0000ms, 2657ms total)
T0BF0 660:701 JLINK_WriteReg(R2, 0x20000180)  returns 0x00 (0000ms, 2657ms total)
T0BF0 660:701 JLINK_WriteReg(R3, 0x00000000)  returns 0x00 (0000ms, 2657ms total)
T0BF0 660:702 JLINK_WriteReg(R4, 0x00000000)  returns 0x00 (0000ms, 2657ms total)
T0BF0 660:702 JLINK_WriteReg(R5, 0x00000000)  returns 0x00 (0000ms, 2657ms total)
T0BF0 660:702 JLINK_WriteReg(R6, 0x00000000)  returns 0x00 (0000ms, 2657ms total)
T0BF0 660:702 JLINK_WriteReg(R7, 0x00000000)  returns 0x00 (0000ms, 2657ms total)
T0BF0 660:702 JLINK_WriteReg(R8, 0x00000000)  returns 0x00 (0000ms, 2657ms total)
T0BF0 660:702 JLINK_WriteReg(R9, 0x2000017C)  returns 0x00 (0000ms, 2657ms total)
T0BF0 660:702 JLINK_WriteReg(R10, 0x00000000)  returns 0x00 (0000ms, 2657ms total)
T0BF0 660:702 JLINK_WriteReg(R11, 0x00000000)  returns 0x00 (0000ms, 2657ms total)
T0BF0 660:702 JLINK_WriteReg(R12, 0x00000000)  returns 0x00 (0000ms, 2657ms total)
T0BF0 660:702 JLINK_WriteReg(R13 (SP), 0x20001000)  returns 0x00 (0000ms, 2657ms total)
T0BF0 660:702 JLINK_WriteReg(R14, 0x20000001)  returns 0x00 (0000ms, 2657ms total)
T0BF0 660:702 JLINK_WriteReg(R15 (PC), 0x20000108)  returns 0x00 (0001ms, 2658ms total)
T0BF0 660:703 JLINK_WriteReg(XPSR, 0x01000000)  returns 0x00 (0000ms, 2658ms total)
T0BF0 660:703 JLINK_WriteReg(MSP, 0x20001000)  returns 0x00 (0000ms, 2658ms total)
T0BF0 660:703 JLINK_WriteReg(PSP, 0x20001000)  returns 0x00 (0000ms, 2658ms total)
T0BF0 660:703 JLINK_WriteReg(CFBP, 0x00000000)  returns 0x00 (0000ms, 2658ms total)
T0BF0 660:703 JLINK_SetBPEx(Addr = 0x20000000, Type = 0xFFFFFFF2)  returns 0x0000000A (0000ms, 2658ms total)
T0BF0 660:703 JLINK_Go() -- CPU_ReadMem(4 bytes @ 0xE0001000) (0002ms, 2660ms total)
T0BF0 660:705 JLINK_IsHalted()  returns FALSE (0001ms, 2661ms total)
T0BF0 660:725 JLINK_IsHalted() -- CPU_ReadMem(2 bytes @ 0x20000000)  returns TRUE (0003ms, 2663ms total)
T0BF0 660:728 JLINK_ReadReg(R15 (PC))  returns 0x20000000 (0000ms, 2660ms total)
T0BF0 660:728 JLINK_ClrBPEx(BPHandle = 0x0000000A)  returns 0x00 (0000ms, 2660ms total)
T0BF0 660:728 JLINK_ReadReg(R0)  returns 0x00000000 (0000ms, 2660ms total)
T0BF0 660:730 JLINK_WriteMem(0x20000180, 0x0280 Bytes, ...) - Data: C4 F5 E0 64 C4 F3 07 21 C1 F1 04 04 E3 B2 0A 41 ... -- CPU_WriteMem(640 bytes @ 0x20000180)  returns 0x280 (0003ms, 2663ms total)
T0BF0 660:733 JLINK_WriteMem(0x20000400, 0x0180 Bytes, ...) - Data: 70 47 00 00 0C B5 00 20 01 90 00 90 34 48 00 68 ... -- CPU_WriteMem(384 bytes @ 0x20000400)  returns 0x180 (0001ms, 2664ms total)
T0BF0 660:734 JLINK_WriteReg(R0, 0x08001400)  returns 0x00 (0000ms, 2664ms total)
T0BF0 660:734 JLINK_WriteReg(R1, 0x00000400)  returns 0x00 (0000ms, 2664ms total)
T0BF0 660:734 JLINK_WriteReg(R2, 0x20000180)  returns 0x00 (0000ms, 2664ms total)
T0BF0 660:734 JLINK_WriteReg(R3, 0x00000000)  returns 0x00 (0000ms, 2664ms total)
T0BF0 660:734 JLINK_WriteReg(R4, 0x00000000)  returns 0x00 (0001ms, 2665ms total)
T0BF0 660:735 JLINK_WriteReg(R5, 0x00000000)  returns 0x00 (0000ms, 2665ms total)
T0BF0 660:735 JLINK_WriteReg(R6, 0x00000000)  returns 0x00 (0000ms, 2665ms total)
T0BF0 660:735 JLINK_WriteReg(R7, 0x00000000)  returns 0x00 (0000ms, 2665ms total)
T0BF0 660:735 JLINK_WriteReg(R8, 0x00000000)  returns 0x00 (0000ms, 2665ms total)
T0BF0 660:735 JLINK_WriteReg(R9, 0x2000017C)  returns 0x00 (0000ms, 2665ms total)
T0BF0 660:735 JLINK_WriteReg(R10, 0x00000000)  returns 0x00 (0000ms, 2665ms total)
T0BF0 660:735 JLINK_WriteReg(R11, 0x00000000)  returns 0x00 (0000ms, 2665ms total)
T0BF0 660:735 JLINK_WriteReg(R12, 0x00000000)  returns 0x00 (0000ms, 2665ms total)
T0BF0 660:735 JLINK_WriteReg(R13 (SP), 0x20001000)  returns 0x00 (0000ms, 2665ms total)
T0BF0 660:735 JLINK_WriteReg(R14, 0x20000001)  returns 0x00 (0000ms, 2665ms total)
T0BF0 660:735 JLINK_WriteReg(R15 (PC), 0x20000108)  returns 0x00 (0001ms, 2666ms total)
T0BF0 660:736 JLINK_WriteReg(XPSR, 0x01000000)  returns 0x00 (0000ms, 2666ms total)
T0BF0 660:736 JLINK_WriteReg(MSP, 0x20001000)  returns 0x00 (0000ms, 2666ms total)
T0BF0 660:736 JLINK_WriteReg(PSP, 0x20001000)  returns 0x00 (0000ms, 2666ms total)
T0BF0 660:736 JLINK_WriteReg(CFBP, 0x00000000)  returns 0x00 (0000ms, 2666ms total)
T0BF0 660:736 JLINK_SetBPEx(Addr = 0x20000000, Type = 0xFFFFFFF2)  returns 0x0000000B (0000ms, 2666ms total)
T0BF0 660:736 JLINK_Go() -- CPU_ReadMem(4 bytes @ 0xE0001000) (0002ms, 2668ms total)
T0BF0 660:738 JLINK_IsHalted()  returns FALSE (0001ms, 2669ms total)
T0BF0 660:741 JLINK_IsHalted()  returns FALSE (0000ms, 2668ms total)
T0BF0 660:756 JLINK_IsHalted() -- CPU_ReadMem(2 bytes @ 0x20000000)  returns TRUE (0003ms, 2671ms total)
T0BF0 660:759 JLINK_ReadReg(R15 (PC))  returns 0x20000000 (0000ms, 2668ms total)
T0BF0 660:759 JLINK_ClrBPEx(BPHandle = 0x0000000B)  returns 0x00 (0000ms, 2668ms total)
T0BF0 660:759 JLINK_ReadReg(R0)  returns 0x00000000 (0000ms, 2668ms total)
T0BF0 660:760 JLINK_WriteMem(0x20000180, 0x0280 Bytes, ...) - Data: 04 00 00 20 08 00 00 20 00 00 02 40 70 00 00 20 ... -- CPU_WriteMem(640 bytes @ 0x20000180)  returns 0x280 (0005ms, 2673ms total)
T0BF0 660:765 JLINK_WriteMem(0x20000400, 0x0180 Bytes, ...) - Data: 00 10 00 40 10 B5 01 21 07 48 00 F0 64 F8 01 28 ... -- CPU_WriteMem(384 bytes @ 0x20000400)  returns 0x180 (0002ms, 2675ms total)
T0BF0 660:767 JLINK_WriteReg(R0, 0x08001800)  returns 0x00 (0000ms, 2675ms total)
T0BF0 660:767 JLINK_WriteReg(R1, 0x00000400)  returns 0x00 (0000ms, 2675ms total)
T0BF0 660:767 JLINK_WriteReg(R2, 0x20000180)  returns 0x00 (0000ms, 2675ms total)
T0BF0 660:767 JLINK_WriteReg(R3, 0x00000000)  returns 0x00 (0000ms, 2675ms total)
T0BF0 660:767 JLINK_WriteReg(R4, 0x00000000)  returns 0x00 (0000ms, 2675ms total)
T0BF0 660:767 JLINK_WriteReg(R5, 0x00000000)  returns 0x00 (0000ms, 2675ms total)
T0BF0 660:767 JLINK_WriteReg(R6, 0x00000000)  returns 0x00 (0000ms, 2675ms total)
T0BF0 660:767 JLINK_WriteReg(R7, 0x00000000)  returns 0x00 (0000ms, 2675ms total)
T0BF0 660:767 JLINK_WriteReg(R8, 0x00000000)  returns 0x00 (0000ms, 2675ms total)
T0BF0 660:767 JLINK_WriteReg(R9, 0x2000017C)  returns 0x00 (0000ms, 2675ms total)
T0BF0 660:767 JLINK_WriteReg(R10, 0x00000000)  returns 0x00 (0000ms, 2675ms total)
T0BF0 660:767 JLINK_WriteReg(R11, 0x00000000)  returns 0x00 (0000ms, 2675ms total)
T0BF0 660:767 JLINK_WriteReg(R12, 0x00000000)  returns 0x00 (0000ms, 2675ms total)
T0BF0 660:767 JLINK_WriteReg(R13 (SP), 0x20001000)  returns 0x00 (0000ms, 2675ms total)
T0BF0 660:767 JLINK_WriteReg(R14, 0x20000001)  returns 0x00 (0000ms, 2675ms total)
T0BF0 660:767 JLINK_WriteReg(R15 (PC), 0x20000108)  returns 0x00 (0000ms, 2675ms total)
T0BF0 660:767 JLINK_WriteReg(XPSR, 0x01000000)  returns 0x00 (0000ms, 2675ms total)
T0BF0 660:768 JLINK_WriteReg(MSP, 0x20001000)  returns 0x00 (0000ms, 2675ms total)
T0BF0 660:768 JLINK_WriteReg(PSP, 0x20001000)  returns 0x00 (0000ms, 2675ms total)
T0BF0 660:768 JLINK_WriteReg(CFBP, 0x00000000)  returns 0x00 (0000ms, 2675ms total)
T0BF0 660:768 JLINK_SetBPEx(Addr = 0x20000000, Type = 0xFFFFFFF2)  returns 0x0000000C (0000ms, 2675ms total)
T0BF0 660:768 JLINK_Go() -- CPU_ReadMem(4 bytes @ 0xE0001000) (0003ms, 2678ms total)
T0BF0 660:771 JLINK_IsHalted()  returns FALSE (0000ms, 2678ms total)
T0BF0 660:774 JLINK_IsHalted()  returns FALSE (0000ms, 2678ms total)
T0BF0 660:796 JLINK_IsHalted() -- CPU_ReadMem(2 bytes @ 0x20000000)  returns TRUE (0002ms, 2680ms total)
T0BF0 660:798 JLINK_ReadReg(R15 (PC))  returns 0x20000000 (0000ms, 2678ms total)
T0BF0 660:798 JLINK_ClrBPEx(BPHandle = 0x0000000C)  returns 0x00 (0000ms, 2678ms total)
T0BF0 660:798 JLINK_ReadReg(R0)  returns 0x00000000 (0000ms, 2678ms total)
T0BF0 660:800 JLINK_WriteMem(0x20000180, 0x0280 Bytes, ...) - Data: 00 08 00 40 00 0C 00 40 00 10 00 40 00 14 00 40 ... -- CPU_WriteMem(640 bytes @ 0x20000180)  returns 0x280 (0003ms, 2681ms total)
T0BF0 660:803 JLINK_WriteMem(0x20000400, 0x0180 Bytes, ...) - Data: FF F7 BE F8 4F F0 00 60 01 90 39 48 00 1D 02 90 ... -- CPU_WriteMem(384 bytes @ 0x20000400)  returns 0x180 (0002ms, 2683ms total)
T0BF0 660:805 JLINK_WriteReg(R0, 0x08001C00)  returns 0x00 (0000ms, 2683ms total)
T0BF0 660:805 JLINK_WriteReg(R1, 0x00000400)  returns 0x00 (0000ms, 2683ms total)
T0BF0 660:805 JLINK_WriteReg(R2, 0x20000180)  returns 0x00 (0000ms, 2683ms total)
T0BF0 660:805 JLINK_WriteReg(R3, 0x00000000)  returns 0x00 (0000ms, 2683ms total)
T0BF0 660:805 JLINK_WriteReg(R4, 0x00000000)  returns 0x00 (0000ms, 2683ms total)
T0BF0 660:805 JLINK_WriteReg(R5, 0x00000000)  returns 0x00 (0001ms, 2684ms total)
T0BF0 660:806 JLINK_WriteReg(R6, 0x00000000)  returns 0x00 (0000ms, 2684ms total)
T0BF0 660:806 JLINK_WriteReg(R7, 0x00000000)  returns 0x00 (0000ms, 2684ms total)
T0BF0 660:806 JLINK_WriteReg(R8, 0x00000000)  returns 0x00 (0000ms, 2684ms total)
T0BF0 660:806 JLINK_WriteReg(R9, 0x2000017C)  returns 0x00 (0000ms, 2684ms total)
T0BF0 660:806 JLINK_WriteReg(R10, 0x00000000)  returns 0x00 (0000ms, 2684ms total)
T0BF0 660:806 JLINK_WriteReg(R11, 0x00000000)  returns 0x00 (0000ms, 2684ms total)
T0BF0 660:806 JLINK_WriteReg(R12, 0x00000000)  returns 0x00 (0000ms, 2684ms total)
T0BF0 660:806 JLINK_WriteReg(R13 (SP), 0x20001000)  returns 0x00 (0000ms, 2684ms total)
T0BF0 660:806 JLINK_WriteReg(R14, 0x20000001)  returns 0x00 (0000ms, 2684ms total)
T0BF0 660:806 JLINK_WriteReg(R15 (PC), 0x20000108)  returns 0x00 (0001ms, 2685ms total)
T0BF0 660:807 JLINK_WriteReg(XPSR, 0x01000000)  returns 0x00 (0000ms, 2685ms total)
T0BF0 660:807 JLINK_WriteReg(MSP, 0x20001000)  returns 0x00 (0000ms, 2685ms total)
T0BF0 660:807 JLINK_WriteReg(PSP, 0x20001000)  returns 0x00 (0000ms, 2685ms total)
T0BF0 660:807 JLINK_WriteReg(CFBP, 0x00000000)  returns 0x00 (0000ms, 2685ms total)
T0BF0 660:807 JLINK_SetBPEx(Addr = 0x20000000, Type = 0xFFFFFFF2)  returns 0x0000000D (0000ms, 2685ms total)
T0BF0 660:807 JLINK_Go() -- CPU_ReadMem(4 bytes @ 0xE0001000) (0003ms, 2688ms total)
T0BF0 660:810 JLINK_IsHalted()  returns FALSE (0000ms, 2688ms total)
T0BF0 660:811 JLINK_IsHalted()  returns FALSE (0001ms, 2689ms total)
T0BF0 660:813 JLINK_IsHalted()  returns FALSE (0001ms, 2689ms total)
T0BF0 660:815 JLINK_IsHalted() -- CPU_ReadMem(2 bytes @ 0x20000000)  returns TRUE (0003ms, 2691ms total)
T0BF0 660:818 JLINK_ReadReg(R15 (PC))  returns 0x20000000 (0000ms, 2688ms total)
T0BF0 660:818 JLINK_ClrBPEx(BPHandle = 0x0000000D)  returns 0x00 (0000ms, 2688ms total)
T0BF0 660:818 JLINK_ReadReg(R0)  returns 0x00000000 (0000ms, 2688ms total)
T0BF0 660:820 JLINK_WriteMem(0x20000180, 0x0280 Bytes, ...) - Data: 00 22 00 23 40 F6 6A 14 A1 42 00 D1 00 BF 0A 12 ... -- CPU_WriteMem(640 bytes @ 0x20000180)  returns 0x280 (0003ms, 2691ms total)
T0BF0 660:823 JLINK_WriteMem(0x20000400, 0x0180 Bytes, ...) - Data: F1 EE 10 FA 02 D8 9F ED 1A 0A 15 E0 17 48 90 ED ... -- CPU_WriteMem(384 bytes @ 0x20000400)  returns 0x180 (0002ms, 2693ms total)
T0BF0 660:825 JLINK_WriteReg(R0, 0x08002000)  returns 0x00 (0000ms, 2693ms total)
T0BF0 660:825 JLINK_WriteReg(R1, 0x00000400)  returns 0x00 (0000ms, 2693ms total)
T0BF0 660:825 JLINK_WriteReg(R2, 0x20000180)  returns 0x00 (0000ms, 2693ms total)
T0BF0 660:825 JLINK_WriteReg(R3, 0x00000000)  returns 0x00 (0000ms, 2693ms total)
T0BF0 660:825 JLINK_WriteReg(R4, 0x00000000)  returns 0x00 (0000ms, 2693ms total)
